
**** 04/06/19 11:16:42 ******* PSpice Lite (March 2016) ******* ID# 10813 ****

 diody zad3


 ****     CIRCUIT DESCRIPTION


******************************************************************************



*-------
.LIB EVAL.LIB 
.PARAM OFFSET =0
.PARAM CAPACITY =0
*-------
V1 1 0 SIN(0 10 1k 0 0 0)
*-------
D1 1 2 D1N4148  
R1 2 0 1k
C1 2 0 {CAPACITY}
*-------

.STEP LIN PARAM CAPACITY 10u 20u 0.2u
.TRAN 0 4m 0.5m 10u
.FOUR 1kHz V(R1)
.PROBE

.END

**** 04/06/19 11:16:42 ******* PSpice Lite (March 2016) ******* ID# 10813 ****

 diody zad3


 ****     Diode MODEL PARAMETERS


******************************************************************************




               D1N4148         
          IS    2.682000E-09 
           N    1.836        
         ISR    1.565000E-09 
         IKF     .04417      
          BV  100            
         IBV  100.000000E-06 
          RS     .5664       
          TT   11.540000E-09 
         CJO    4.000000E-12 
          VJ     .5          
           M     .3333       


**** 04/06/19 11:16:42 ******* PSpice Lite (March 2016) ******* ID# 10813 ****

 diody zad3


 ****     INITIAL TRANSIENT SOLUTION       TEMPERATURE =   27.000 DEG C

 ****     CURRENT STEP                     PARAM CAPACITY =   10.0000E-06


******************************************************************************



 NODE   VOLTAGE     NODE   VOLTAGE     NODE   VOLTAGE     NODE   VOLTAGE


(    1)    0.0000  (    2) 76.02E-24  




    VOLTAGE SOURCE CURRENTS
    NAME         CURRENT

    V1          -7.602E-26

    TOTAL POWER DISSIPATION   0.00E+00  WATTS


**** 04/06/19 11:16:42 ******* PSpice Lite (March 2016) ******* ID# 10813 ****

 diody zad3


 ****     FOURIER ANALYSIS                 TEMPERATURE =   27.000 DEG C

 ****     CURRENT STEP                     PARAM CAPACITY =   10.0000E-06


******************************************************************************



FOURIER COMPONENTS OF TRANSIENT RESPONSE V(R1)



 DC COMPONENT =   8.8009E+00

 HARMONIC   FREQUENCY     FOURIER     NORMALIZED     PHASE     NORMALIZED
    NO         (HZ)      COMPONENT     COMPONENT     (DEG)     PHASE (DEG)

     1    1.0000E+03   2.7778E-01   1.0000E+00  -7.8145E+01   0.0000E+00
     2    2.0000E+03   1.3556E-01   4.8803E-01  -1.5766E+02  -1.3693E+00
     3    3.0000E+03   8.6885E-02   3.1278E-01   1.2322E+02   3.5765E+02
     4    4.0000E+03   6.1673E-02   2.2202E-01   4.4373E+01   3.5695E+02
     5    5.0000E+03   4.5900E-02   1.6524E-01  -3.4174E+01   3.5655E+02
     6    6.0000E+03   3.4963E-02   1.2587E-01  -1.1244E+02   3.5643E+02
     7    7.0000E+03   2.6944E-02   9.6998E-02   1.6964E+02   7.1665E+02
     8    8.0000E+03   2.0858E-02   7.5090E-02   9.2260E+01   7.1742E+02
     9    9.0000E+03   1.6119E-02   5.8029E-02   1.5640E+01   7.1894E+02


     TOTAL HARMONIC DISTORTION =   6.6847E+01 PERCENT

**** 04/06/19 11:16:42 ******* PSpice Lite (March 2016) ******* ID# 10813 ****

 diody zad3


 ****     INITIAL TRANSIENT SOLUTION       TEMPERATURE =   27.000 DEG C

 ****     CURRENT STEP                     PARAM CAPACITY =   10.2000E-06


******************************************************************************



 NODE   VOLTAGE     NODE   VOLTAGE     NODE   VOLTAGE     NODE   VOLTAGE


(    1)    0.0000  (    2) 76.02E-24  




    VOLTAGE SOURCE CURRENTS
    NAME         CURRENT

    V1          -7.602E-26

    TOTAL POWER DISSIPATION   0.00E+00  WATTS


**** 04/06/19 11:16:42 ******* PSpice Lite (March 2016) ******* ID# 10813 ****

 diody zad3


 ****     FOURIER ANALYSIS                 TEMPERATURE =   27.000 DEG C

 ****     CURRENT STEP                     PARAM CAPACITY =   10.2000E-06


******************************************************************************



FOURIER COMPONENTS OF TRANSIENT RESPONSE V(R1)



 DC COMPONENT =   8.8066E+00

 HARMONIC   FREQUENCY     FOURIER     NORMALIZED     PHASE     NORMALIZED
    NO         (HZ)      COMPONENT     COMPONENT     (DEG)     PHASE (DEG)

     1    1.0000E+03   2.7233E-01   1.0000E+00  -7.8340E+01   0.0000E+00
     2    2.0000E+03   1.3278E-01   4.8756E-01  -1.5810E+02  -1.4150E+00
     3    3.0000E+03   8.5120E-02   3.1256E-01   1.2251E+02   3.5753E+02
     4    4.0000E+03   6.0472E-02   2.2206E-01   4.3467E+01   3.5683E+02
     5    5.0000E+03   4.4991E-02   1.6521E-01  -3.5221E+01   3.5648E+02
     6    6.0000E+03   3.4214E-02   1.2563E-01  -1.1368E+02   3.5636E+02
     7    7.0000E+03   2.6340E-02   9.6722E-02   1.6814E+02   7.1652E+02
     8    8.0000E+03   2.0405E-02   7.4928E-02   9.0545E+01   7.1727E+02
     9    9.0000E+03   1.5774E-02   5.7922E-02   1.3851E+01   7.1891E+02


     TOTAL HARMONIC DISTORTION =   6.6792E+01 PERCENT

**** 04/06/19 11:16:42 ******* PSpice Lite (March 2016) ******* ID# 10813 ****

 diody zad3


 ****     INITIAL TRANSIENT SOLUTION       TEMPERATURE =   27.000 DEG C

 ****     CURRENT STEP                     PARAM CAPACITY =   10.4000E-06


******************************************************************************



 NODE   VOLTAGE     NODE   VOLTAGE     NODE   VOLTAGE     NODE   VOLTAGE


(    1)    0.0000  (    2) 76.02E-24  




    VOLTAGE SOURCE CURRENTS
    NAME         CURRENT

    V1          -7.602E-26

    TOTAL POWER DISSIPATION   0.00E+00  WATTS


**** 04/06/19 11:16:42 ******* PSpice Lite (March 2016) ******* ID# 10813 ****

 diody zad3


 ****     FOURIER ANALYSIS                 TEMPERATURE =   27.000 DEG C

 ****     CURRENT STEP                     PARAM CAPACITY =   10.4000E-06


******************************************************************************



FOURIER COMPONENTS OF TRANSIENT RESPONSE V(R1)



 DC COMPONENT =   8.8148E+00

 HARMONIC   FREQUENCY     FOURIER     NORMALIZED     PHASE     NORMALIZED
    NO         (HZ)      COMPONENT     COMPONENT     (DEG)     PHASE (DEG)

     1    1.0000E+03   2.6824E-01   1.0000E+00  -7.8853E+01   0.0000E+00
     2    2.0000E+03   1.3131E-01   4.8951E-01  -1.5867E+02  -9.6389E-01
     3    3.0000E+03   8.3860E-02   3.1262E-01   1.2202E+02   3.5858E+02
     4    4.0000E+03   5.9082E-02   2.2025E-01   4.2690E+01   3.5810E+02
     5    5.0000E+03   4.3848E-02   1.6346E-01  -3.6578E+01   3.5769E+02
     6    6.0000E+03   3.3479E-02   1.2481E-01  -1.1526E+02   3.5786E+02
     7    7.0000E+03   2.5749E-02   9.5989E-02   1.6686E+02   7.1883E+02
     8    8.0000E+03   1.9719E-02   7.3511E-02   8.9420E+01   7.2025E+02
     9    9.0000E+03   1.5089E-02   5.6250E-02   1.2220E+01   7.2190E+02


     TOTAL HARMONIC DISTORTION =   6.6779E+01 PERCENT

**** 04/06/19 11:16:42 ******* PSpice Lite (March 2016) ******* ID# 10813 ****

 diody zad3


 ****     INITIAL TRANSIENT SOLUTION       TEMPERATURE =   27.000 DEG C

 ****     CURRENT STEP                     PARAM CAPACITY =   10.6000E-06


******************************************************************************



 NODE   VOLTAGE     NODE   VOLTAGE     NODE   VOLTAGE     NODE   VOLTAGE


(    1)    0.0000  (    2) 76.02E-24  




    VOLTAGE SOURCE CURRENTS
    NAME         CURRENT

    V1          -7.602E-26

    TOTAL POWER DISSIPATION   0.00E+00  WATTS


**** 04/06/19 11:16:42 ******* PSpice Lite (March 2016) ******* ID# 10813 ****

 diody zad3


 ****     FOURIER ANALYSIS                 TEMPERATURE =   27.000 DEG C

 ****     CURRENT STEP                     PARAM CAPACITY =   10.6000E-06


******************************************************************************



FOURIER COMPONENTS OF TRANSIENT RESPONSE V(R1)



 DC COMPONENT =   8.8169E+00

 HARMONIC   FREQUENCY     FOURIER     NORMALIZED     PHASE     NORMALIZED
    NO         (HZ)      COMPONENT     COMPONENT     (DEG)     PHASE (DEG)

     1    1.0000E+03   2.6230E-01   1.0000E+00  -7.8691E+01   0.0000E+00
     2    2.0000E+03   1.2783E-01   4.8733E-01  -1.5876E+02  -1.3802E+00
     3    3.0000E+03   8.1907E-02   3.1226E-01   1.2150E+02   3.5758E+02
     4    4.0000E+03   5.8150E-02   2.2169E-01   4.2121E+01   3.5689E+02
     5    5.0000E+03   4.3210E-02   1.6473E-01  -3.6917E+01   3.5654E+02
     6    6.0000E+03   3.2801E-02   1.2505E-01  -1.1576E+02   3.5639E+02
     7    7.0000E+03   2.5202E-02   9.6081E-02   1.6563E+02   7.1647E+02
     8    8.0000E+03   1.9478E-02   7.4256E-02   8.7591E+01   7.1712E+02
     9    9.0000E+03   1.5005E-02   5.7206E-02   1.0432E+01   7.1865E+02


     TOTAL HARMONIC DISTORTION =   6.6703E+01 PERCENT

**** 04/06/19 11:16:42 ******* PSpice Lite (March 2016) ******* ID# 10813 ****

 diody zad3


 ****     INITIAL TRANSIENT SOLUTION       TEMPERATURE =   27.000 DEG C

 ****     CURRENT STEP                     PARAM CAPACITY =   10.8000E-06


******************************************************************************



 NODE   VOLTAGE     NODE   VOLTAGE     NODE   VOLTAGE     NODE   VOLTAGE


(    1)    0.0000  (    2) 76.02E-24  




    VOLTAGE SOURCE CURRENTS
    NAME         CURRENT

    V1          -7.602E-26

    TOTAL POWER DISSIPATION   0.00E+00  WATTS


**** 04/06/19 11:16:42 ******* PSpice Lite (March 2016) ******* ID# 10813 ****

 diody zad3


 ****     FOURIER ANALYSIS                 TEMPERATURE =   27.000 DEG C

 ****     CURRENT STEP                     PARAM CAPACITY =   10.8000E-06


******************************************************************************



FOURIER COMPONENTS OF TRANSIENT RESPONSE V(R1)



 DC COMPONENT =   8.8233E+00

 HARMONIC   FREQUENCY     FOURIER     NORMALIZED     PHASE     NORMALIZED
    NO         (HZ)      COMPONENT     COMPONENT     (DEG)     PHASE (DEG)

     1    1.0000E+03   2.5792E-01   1.0000E+00  -7.8958E+01   0.0000E+00
     2    2.0000E+03   1.2591E-01   4.8818E-01  -1.5916E+02  -1.2460E+00
     3    3.0000E+03   8.0696E-02   3.1287E-01   1.2101E+02   3.5788E+02
     4    4.0000E+03   5.7264E-02   2.2202E-01   4.1431E+01   3.5726E+02
     5    5.0000E+03   4.2620E-02   1.6525E-01  -3.7877E+01   3.5691E+02
     6    6.0000E+03   3.2479E-02   1.2593E-01  -1.1689E+02   3.5685E+02
     7    7.0000E+03   2.5033E-02   9.7057E-02   1.6446E+02   7.1716E+02
     8    8.0000E+03   1.9368E-02   7.5093E-02   8.6342E+01   7.1800E+02
     9    9.0000E+03   1.4956E-02   5.7986E-02   8.9362E+00   7.1956E+02


     TOTAL HARMONIC DISTORTION =   6.6865E+01 PERCENT

**** 04/06/19 11:16:42 ******* PSpice Lite (March 2016) ******* ID# 10813 ****

 diody zad3


 ****     INITIAL TRANSIENT SOLUTION       TEMPERATURE =   27.000 DEG C

 ****     CURRENT STEP                     PARAM CAPACITY =   11.0000E-06


******************************************************************************



 NODE   VOLTAGE     NODE   VOLTAGE     NODE   VOLTAGE     NODE   VOLTAGE


(    1)    0.0000  (    2) 76.02E-24  




    VOLTAGE SOURCE CURRENTS
    NAME         CURRENT

    V1          -7.602E-26

    TOTAL POWER DISSIPATION   0.00E+00  WATTS


**** 04/06/19 11:16:42 ******* PSpice Lite (March 2016) ******* ID# 10813 ****

 diody zad3


 ****     FOURIER ANALYSIS                 TEMPERATURE =   27.000 DEG C

 ****     CURRENT STEP                     PARAM CAPACITY =   11.0000E-06


******************************************************************************



FOURIER COMPONENTS OF TRANSIENT RESPONSE V(R1)



 DC COMPONENT =   8.8267E+00

 HARMONIC   FREQUENCY     FOURIER     NORMALIZED     PHASE     NORMALIZED
    NO         (HZ)      COMPONENT     COMPONENT     (DEG)     PHASE (DEG)

     1    1.0000E+03   2.5307E-01   1.0000E+00  -7.9031E+01   0.0000E+00
     2    2.0000E+03   1.2338E-01   4.8751E-01  -1.5940E+02  -1.3424E+00
     3    3.0000E+03   7.9118E-02   3.1263E-01   1.2054E+02   3.5764E+02
     4    4.0000E+03   5.6234E-02   2.2221E-01   4.0846E+01   3.5697E+02
     5    5.0000E+03   4.1841E-02   1.6533E-01  -3.8518E+01   3.5664E+02
     6    6.0000E+03   3.1812E-02   1.2570E-01  -1.1771E+02   3.5648E+02
     7    7.0000E+03   2.4492E-02   9.6779E-02   1.6332E+02   7.1653E+02
     8    8.0000E+03   1.8974E-02   7.4975E-02   8.4897E+01   7.1715E+02
     9    9.0000E+03   1.4652E-02   5.7897E-02   7.3378E+00   7.1862E+02


     TOTAL HARMONIC DISTORTION =   6.6803E+01 PERCENT

**** 04/06/19 11:16:42 ******* PSpice Lite (March 2016) ******* ID# 10813 ****

 diody zad3


 ****     INITIAL TRANSIENT SOLUTION       TEMPERATURE =   27.000 DEG C

 ****     CURRENT STEP                     PARAM CAPACITY =   11.2000E-06


******************************************************************************



 NODE   VOLTAGE     NODE   VOLTAGE     NODE   VOLTAGE     NODE   VOLTAGE


(    1)    0.0000  (    2) 76.02E-24  




    VOLTAGE SOURCE CURRENTS
    NAME         CURRENT

    V1          -7.602E-26

    TOTAL POWER DISSIPATION   0.00E+00  WATTS


**** 04/06/19 11:16:42 ******* PSpice Lite (March 2016) ******* ID# 10813 ****

 diody zad3


 ****     FOURIER ANALYSIS                 TEMPERATURE =   27.000 DEG C

 ****     CURRENT STEP                     PARAM CAPACITY =   11.2000E-06


******************************************************************************



FOURIER COMPONENTS OF TRANSIENT RESPONSE V(R1)



 DC COMPONENT =   8.8331E+00

 HARMONIC   FREQUENCY     FOURIER     NORMALIZED     PHASE     NORMALIZED
    NO         (HZ)      COMPONENT     COMPONENT     (DEG)     PHASE (DEG)

     1    1.0000E+03   2.4936E-01   1.0000E+00  -7.9378E+01   0.0000E+00
     2    2.0000E+03   1.2199E-01   4.8922E-01  -1.5980E+02  -1.0408E+00
     3    3.0000E+03   7.8149E-02   3.1340E-01   1.2020E+02   3.5833E+02
     4    4.0000E+03   5.5369E-02   2.2205E-01   4.0289E+01   3.5780E+02
     5    5.0000E+03   4.1261E-02   1.6547E-01  -3.9469E+01   3.5742E+02
     6    6.0000E+03   3.1574E-02   1.2662E-01  -1.1881E+02   3.5745E+02
     7    7.0000E+03   2.4399E-02   9.7849E-02   1.6237E+02   7.1801E+02
     8    8.0000E+03   1.8867E-02   7.5663E-02   8.3967E+01   7.1899E+02
     9    9.0000E+03   1.4583E-02   5.8482E-02   5.9682E+00   7.2037E+02


     TOTAL HARMONIC DISTORTION =   6.7007E+01 PERCENT

**** 04/06/19 11:16:42 ******* PSpice Lite (March 2016) ******* ID# 10813 ****

 diody zad3


 ****     INITIAL TRANSIENT SOLUTION       TEMPERATURE =   27.000 DEG C

 ****     CURRENT STEP                     PARAM CAPACITY =   11.4000E-06


******************************************************************************



 NODE   VOLTAGE     NODE   VOLTAGE     NODE   VOLTAGE     NODE   VOLTAGE


(    1)    0.0000  (    2) 76.02E-24  




    VOLTAGE SOURCE CURRENTS
    NAME         CURRENT

    V1          -7.602E-26

    TOTAL POWER DISSIPATION   0.00E+00  WATTS


**** 04/06/19 11:16:42 ******* PSpice Lite (March 2016) ******* ID# 10813 ****

 diody zad3


 ****     FOURIER ANALYSIS                 TEMPERATURE =   27.000 DEG C

 ****     CURRENT STEP                     PARAM CAPACITY =   11.4000E-06


******************************************************************************



FOURIER COMPONENTS OF TRANSIENT RESPONSE V(R1)



 DC COMPONENT =   8.8367E+00

 HARMONIC   FREQUENCY     FOURIER     NORMALIZED     PHASE     NORMALIZED
    NO         (HZ)      COMPONENT     COMPONENT     (DEG)     PHASE (DEG)

     1    1.0000E+03   2.4521E-01   1.0000E+00  -7.9521E+01   0.0000E+00
     2    2.0000E+03   1.2004E-01   4.8955E-01  -1.6001E+02  -9.6356E-01
     3    3.0000E+03   7.6875E-02   3.1350E-01   1.1993E+02   3.5849E+02
     4    4.0000E+03   5.4415E-02   2.2191E-01   3.9893E+01   3.5798E+02
     5    5.0000E+03   4.0545E-02   1.6535E-01  -4.0044E+01   3.5756E+02
     6    6.0000E+03   3.1042E-02   1.2659E-01  -1.1953E+02   3.5759E+02
     7    7.0000E+03   2.3973E-02   9.7765E-02   1.6155E+02   7.1820E+02
     8    8.0000E+03   1.8490E-02   7.5405E-02   8.3004E+01   7.1917E+02
     9    9.0000E+03   1.4251E-02   5.8116E-02   4.7521E+00   7.2044E+02


     TOTAL HARMONIC DISTORTION =   6.7020E+01 PERCENT

**** 04/06/19 11:16:42 ******* PSpice Lite (March 2016) ******* ID# 10813 ****

 diody zad3


 ****     INITIAL TRANSIENT SOLUTION       TEMPERATURE =   27.000 DEG C

 ****     CURRENT STEP                     PARAM CAPACITY =   11.6000E-06


******************************************************************************



 NODE   VOLTAGE     NODE   VOLTAGE     NODE   VOLTAGE     NODE   VOLTAGE


(    1)    0.0000  (    2) 76.02E-24  




    VOLTAGE SOURCE CURRENTS
    NAME         CURRENT

    V1          -7.602E-26

    TOTAL POWER DISSIPATION   0.00E+00  WATTS


**** 04/06/19 11:16:42 ******* PSpice Lite (March 2016) ******* ID# 10813 ****

 diody zad3


 ****     FOURIER ANALYSIS                 TEMPERATURE =   27.000 DEG C

 ****     CURRENT STEP                     PARAM CAPACITY =   11.6000E-06


******************************************************************************



FOURIER COMPONENTS OF TRANSIENT RESPONSE V(R1)



 DC COMPONENT =   8.8413E+00

 HARMONIC   FREQUENCY     FOURIER     NORMALIZED     PHASE     NORMALIZED
    NO         (HZ)      COMPONENT     COMPONENT     (DEG)     PHASE (DEG)

     1    1.0000E+03   2.4123E-01   1.0000E+00  -7.9722E+01   0.0000E+00
     2    2.0000E+03   1.1817E-01   4.8987E-01  -1.6033E+02  -8.8324E-01
     3    3.0000E+03   7.5652E-02   3.1361E-01   1.1950E+02   3.5867E+02
     4    4.0000E+03   5.3509E-02   2.2181E-01   3.9304E+01   3.5819E+02
     5    5.0000E+03   3.9881E-02   1.6532E-01  -4.0829E+01   3.5778E+02
     6    6.0000E+03   3.0571E-02   1.2673E-01  -1.2046E+02   3.5788E+02
     7    7.0000E+03   2.3623E-02   9.7928E-02   1.6056E+02   7.1861E+02
     8    8.0000E+03   1.8212E-02   7.5496E-02   8.1892E+01   7.1967E+02
     9    9.0000E+03   1.4042E-02   5.8209E-02   3.4320E+00   7.2093E+02


     TOTAL HARMONIC DISTORTION =   6.7052E+01 PERCENT

**** 04/06/19 11:16:42 ******* PSpice Lite (March 2016) ******* ID# 10813 ****

 diody zad3


 ****     INITIAL TRANSIENT SOLUTION       TEMPERATURE =   27.000 DEG C

 ****     CURRENT STEP                     PARAM CAPACITY =   11.8000E-06


******************************************************************************



 NODE   VOLTAGE     NODE   VOLTAGE     NODE   VOLTAGE     NODE   VOLTAGE


(    1)    0.0000  (    2) 76.02E-24  




    VOLTAGE SOURCE CURRENTS
    NAME         CURRENT

    V1          -7.602E-26

    TOTAL POWER DISSIPATION   0.00E+00  WATTS


**** 04/06/19 11:16:42 ******* PSpice Lite (March 2016) ******* ID# 10813 ****

 diody zad3


 ****     FOURIER ANALYSIS                 TEMPERATURE =   27.000 DEG C

 ****     CURRENT STEP                     PARAM CAPACITY =   11.8000E-06


******************************************************************************



FOURIER COMPONENTS OF TRANSIENT RESPONSE V(R1)



 DC COMPONENT =   8.8448E+00

 HARMONIC   FREQUENCY     FOURIER     NORMALIZED     PHASE     NORMALIZED
    NO         (HZ)      COMPONENT     COMPONENT     (DEG)     PHASE (DEG)

     1    1.0000E+03   2.3676E-01   1.0000E+00  -7.9715E+01   0.0000E+00
     2    2.0000E+03   1.1570E-01   4.8869E-01  -1.6054E+02  -1.1129E+00
     3    3.0000E+03   7.4227E-02   3.1351E-01   1.1898E+02   3.5812E+02
     4    4.0000E+03   5.2739E-02   2.2276E-01   3.8701E+01   3.5756E+02
     5    5.0000E+03   3.9341E-02   1.6617E-01  -4.1353E+01   3.5722E+02
     6    6.0000E+03   3.0079E-02   1.2704E-01  -1.2113E+02   3.5716E+02
     7    7.0000E+03   2.3264E-02   9.8261E-02   1.5945E+02   7.1746E+02
     8    8.0000E+03   1.8059E-02   7.6274E-02   8.0472E+01   7.1820E+02
     9    9.0000E+03   1.3997E-02   5.9120E-02   2.0595E+00   7.1950E+02


     TOTAL HARMONIC DISTORTION =   6.7041E+01 PERCENT

**** 04/06/19 11:16:42 ******* PSpice Lite (March 2016) ******* ID# 10813 ****

 diody zad3


 ****     INITIAL TRANSIENT SOLUTION       TEMPERATURE =   27.000 DEG C

 ****     CURRENT STEP                     PARAM CAPACITY =   12.0000E-06


******************************************************************************



 NODE   VOLTAGE     NODE   VOLTAGE     NODE   VOLTAGE     NODE   VOLTAGE


(    1)    0.0000  (    2) 76.02E-24  




    VOLTAGE SOURCE CURRENTS
    NAME         CURRENT

    V1          -7.602E-26
