
**** 04/06/19 11:54:24 ******* PSpice Lite (March 2016) ******* ID# 10813 ****

 diody zad4


 ****     CIRCUIT DESCRIPTION


******************************************************************************



*-------
.LIB EVAL.LIB 
.PARAM AMPL = 10
*-------
V_IN 1 0 SIN(0 {AMPL} 1k 0 0 0)
V1 3 0 5
V2 0 4 4
*-------        
R1 1 2 1k
D1 2 3 D1N4148
D2 4 2 D1N4148

*-------
.TRAN 0 5m 
.FOUR 1k V(2)
.STEP LIN PARAM AMPL 0 0.5 0.01
.PROBE

.END

**** 04/06/19 11:54:24 ******* PSpice Lite (March 2016) ******* ID# 10813 ****

 diody zad4


 ****     Diode MODEL PARAMETERS


******************************************************************************




               D1N4148         
          IS    2.682000E-09 
           N    1.836        
         ISR    1.565000E-09 
         IKF     .04417      
          BV  100            
         IBV  100.000000E-06 
          RS     .5664       
          TT   11.540000E-09 
         CJO    4.000000E-12 
          VJ     .5          
           M     .3333       


**** 04/06/19 11:54:24 ******* PSpice Lite (March 2016) ******* ID# 10813 ****

 diody zad4


 ****     INITIAL TRANSIENT SOLUTION       TEMPERATURE =   27.000 DEG C

 ****     CURRENT STEP                     PARAM AMPL =    0     


******************************************************************************



 NODE   VOLTAGE     NODE   VOLTAGE     NODE   VOLTAGE     NODE   VOLTAGE


(    1)    0.0000  (    2) 225.1E-09  (    3)    5.0000  (    4)   -4.0000  




    VOLTAGE SOURCE CURRENTS
    NAME         CURRENT

    V_IN         2.251E-10
    V1          -6.162E-09
    V2          -5.937E-09

    TOTAL POWER DISSIPATION   5.46E-08  WATTS


**** 04/06/19 11:54:24 ******* PSpice Lite (March 2016) ******* ID# 10813 ****

 diody zad4


 ****     FOURIER ANALYSIS                 TEMPERATURE =   27.000 DEG C

 ****     CURRENT STEP                     PARAM AMPL =    0     


******************************************************************************



FOURIER COMPONENTS OF TRANSIENT RESPONSE V(2)



 DC COMPONENT =   2.2515E-07

 HARMONIC   FREQUENCY     FOURIER     NORMALIZED     PHASE     NORMALIZED
    NO         (HZ)      COMPONENT     COMPONENT     (DEG)     PHASE (DEG)

     1    1.0000E+03   3.2394E-23   1.0000E+00  -1.4551E+02   0.0000E+00
     2    2.0000E+03   4.1582E-23   1.2836E+00  -1.0666E+02   1.8435E+02
     3    3.0000E+03   3.2233E-23   9.9500E-01   2.7086E+01   4.6361E+02
     4    4.0000E+03   5.6784E-23   1.7529E+00  -1.7181E+01   5.6485E+02
     5    5.0000E+03   3.7775E-23   1.1661E+00  -1.5095E+02   5.7659E+02
     6    6.0000E+03   1.5332E-22   4.7330E+00  -1.1636E+01   8.6140E+02
     7    7.0000E+03   1.7036E-22   5.2589E+00  -5.2887E-01   1.0180E+03
     8    8.0000E+03   5.0073E-22   1.5457E+01   3.8753E+01   1.2028E+03
     9    9.0000E+03   1.2383E-22   3.8227E+00   9.2669E+01   1.4022E+03


     TOTAL HARMONIC DISTORTION =   1.7626E+03 PERCENT

**** 04/06/19 11:54:24 ******* PSpice Lite (March 2016) ******* ID# 10813 ****

 diody zad4


 ****     INITIAL TRANSIENT SOLUTION       TEMPERATURE =   27.000 DEG C

 ****     CURRENT STEP                     PARAM AMPL =     .01  


******************************************************************************



 NODE   VOLTAGE     NODE   VOLTAGE     NODE   VOLTAGE     NODE   VOLTAGE


(    1)    0.0000  (    2) 225.1E-09  (    3)    5.0000  (    4)   -4.0000  




    VOLTAGE SOURCE CURRENTS
    NAME         CURRENT

    V_IN         2.251E-10
    V1          -6.162E-09
    V2          -5.937E-09

    TOTAL POWER DISSIPATION   5.46E-08  WATTS


**** 04/06/19 11:54:24 ******* PSpice Lite (March 2016) ******* ID# 10813 ****

 diody zad4


 ****     FOURIER ANALYSIS                 TEMPERATURE =   27.000 DEG C

 ****     CURRENT STEP                     PARAM AMPL =     .01  


******************************************************************************



FOURIER COMPONENTS OF TRANSIENT RESPONSE V(2)



 DC COMPONENT =   3.5860E-06

 HARMONIC   FREQUENCY     FOURIER     NORMALIZED     PHASE     NORMALIZED
    NO         (HZ)      COMPONENT     COMPONENT     (DEG)     PHASE (DEG)

     1    1.0000E+03   9.6762E-03   1.0000E+00   2.8757E-02   0.0000E+00
     2    2.0000E+03   4.3897E-06   4.5366E-04   6.7358E+01   6.7300E+01
     3    3.0000E+03   5.2893E-06   5.4663E-04   7.1502E+01   7.1416E+01
     4    4.0000E+03   5.9402E-06   6.1390E-04   6.6904E+01   6.6789E+01
     5    5.0000E+03   6.3542E-06   6.5668E-04   6.2296E+01   6.2152E+01
     6    6.0000E+03   6.5201E-06   6.7383E-04   5.9637E+01   5.9464E+01
     7    7.0000E+03   6.5891E-06   6.8096E-04   6.0140E+01   5.9938E+01
     8    8.0000E+03   7.0837E-06   7.3208E-04   6.5928E+01   6.5698E+01
     9    9.0000E+03   1.2630E-04   1.3052E-02   7.7983E+01   7.7724E+01


     TOTAL HARMONIC DISTORTION =   1.3158E+00 PERCENT

**** 04/06/19 11:54:24 ******* PSpice Lite (March 2016) ******* ID# 10813 ****

 diody zad4


 ****     INITIAL TRANSIENT SOLUTION       TEMPERATURE =   27.000 DEG C

 ****     CURRENT STEP                     PARAM AMPL =     .02  


******************************************************************************



 NODE   VOLTAGE     NODE   VOLTAGE     NODE   VOLTAGE     NODE   VOLTAGE


(    1)    0.0000  (    2) 225.1E-09  (    3)    5.0000  (    4)   -4.0000  




    VOLTAGE SOURCE CURRENTS
    NAME         CURRENT

    V_IN         2.251E-10
    V1          -6.162E-09
    V2          -5.937E-09

    TOTAL POWER DISSIPATION   5.46E-08  WATTS


**** 04/06/19 11:54:24 ******* PSpice Lite (March 2016) ******* ID# 10813 ****

 diody zad4


 ****     FOURIER ANALYSIS                 TEMPERATURE =   27.000 DEG C

 ****     CURRENT STEP                     PARAM AMPL =     .02  


******************************************************************************



FOURIER COMPONENTS OF TRANSIENT RESPONSE V(2)



 DC COMPONENT =   6.9470E-06

 HARMONIC   FREQUENCY     FOURIER     NORMALIZED     PHASE     NORMALIZED
    NO         (HZ)      COMPONENT     COMPONENT     (DEG)     PHASE (DEG)

     1    1.0000E+03   1.9352E-02   1.0000E+00   2.8757E-02   0.0000E+00
     2    2.0000E+03   8.7796E-06   4.5367E-04   6.7358E+01   6.7300E+01
     3    3.0000E+03   1.0579E-05   5.4663E-04   7.1501E+01   7.1414E+01
     4    4.0000E+03   1.1880E-05   6.1389E-04   6.6904E+01   6.6789E+01
     5    5.0000E+03   1.2708E-05   6.5668E-04   6.2296E+01   6.2152E+01
     6    6.0000E+03   1.3040E-05   6.7383E-04   5.9637E+01   5.9464E+01
     7    7.0000E+03   1.3178E-05   6.8096E-04   6.0140E+01   5.9939E+01
     8    8.0000E+03   1.4167E-05   7.3208E-04   6.5928E+01   6.5698E+01
     9    9.0000E+03   2.5259E-04   1.3052E-02   7.7983E+01   7.7724E+01


     TOTAL HARMONIC DISTORTION =   1.3158E+00 PERCENT

**** 04/06/19 11:54:24 ******* PSpice Lite (March 2016) ******* ID# 10813 ****

 diody zad4


 ****     INITIAL TRANSIENT SOLUTION       TEMPERATURE =   27.000 DEG C

 ****     CURRENT STEP                     PARAM AMPL =     .03  


******************************************************************************



 NODE   VOLTAGE     NODE   VOLTAGE     NODE   VOLTAGE     NODE   VOLTAGE


(    1)    0.0000  (    2) 225.1E-09  (    3)    5.0000  (    4)   -4.0000  




    VOLTAGE SOURCE CURRENTS
    NAME         CURRENT

    V_IN         2.251E-10
    V1          -6.162E-09
    V2          -5.937E-09

    TOTAL POWER DISSIPATION   5.46E-08  WATTS


**** 04/06/19 11:54:24 ******* PSpice Lite (March 2016) ******* ID# 10813 ****

 diody zad4


 ****     FOURIER ANALYSIS                 TEMPERATURE =   27.000 DEG C

 ****     CURRENT STEP                     PARAM AMPL =     .03  


******************************************************************************



FOURIER COMPONENTS OF TRANSIENT RESPONSE V(2)



 DC COMPONENT =   1.0308E-05

 HARMONIC   FREQUENCY     FOURIER     NORMALIZED     PHASE     NORMALIZED
    NO         (HZ)      COMPONENT     COMPONENT     (DEG)     PHASE (DEG)

     1    1.0000E+03   2.9028E-02   1.0000E+00   2.8757E-02   0.0000E+00
     2    2.0000E+03   1.3169E-05   4.5364E-04   6.7357E+01   6.7300E+01
     3    3.0000E+03   1.5868E-05   5.4663E-04   7.1503E+01   7.1416E+01
     4    4.0000E+03   1.7821E-05   6.1390E-04   6.6904E+01   6.6789E+01
     5    5.0000E+03   1.9063E-05   6.5668E-04   6.2296E+01   6.2152E+01
     6    6.0000E+03   1.9560E-05   6.7383E-04   5.9637E+01   5.9464E+01
     7    7.0000E+03   1.9767E-05   6.8096E-04   6.0140E+01   5.9938E+01
     8    8.0000E+03   2.1251E-05   7.3207E-04   6.5928E+01   6.5698E+01
     9    9.0000E+03   3.7889E-04   1.3052E-02   7.7983E+01   7.7724E+01


     TOTAL HARMONIC DISTORTION =   1.3158E+00 PERCENT

**** 04/06/19 11:54:24 ******* PSpice Lite (March 2016) ******* ID# 10813 ****

 diody zad4


 ****     INITIAL TRANSIENT SOLUTION       TEMPERATURE =   27.000 DEG C

 ****     CURRENT STEP                     PARAM AMPL =     .04  


******************************************************************************



 NODE   VOLTAGE     NODE   VOLTAGE     NODE   VOLTAGE     NODE   VOLTAGE


(    1)    0.0000  (    2) 225.1E-09  (    3)    5.0000  (    4)   -4.0000  




    VOLTAGE SOURCE CURRENTS
    NAME         CURRENT

    V_IN         2.251E-10
    V1          -6.162E-09
    V2          -5.937E-09

    TOTAL POWER DISSIPATION   5.46E-08  WATTS


**** 04/06/19 11:54:24 ******* PSpice Lite (March 2016) ******* ID# 10813 ****

 diody zad4


 ****     FOURIER ANALYSIS                 TEMPERATURE =   27.000 DEG C

 ****     CURRENT STEP                     PARAM AMPL =     .04  


******************************************************************************



FOURIER COMPONENTS OF TRANSIENT RESPONSE V(2)



 DC COMPONENT =   1.3669E-05

 HARMONIC   FREQUENCY     FOURIER     NORMALIZED     PHASE     NORMALIZED
    NO         (HZ)      COMPONENT     COMPONENT     (DEG)     PHASE (DEG)

     1    1.0000E+03   3.8705E-02   1.0000E+00   2.8757E-02   0.0000E+00
     2    2.0000E+03   1.7558E-05   4.5364E-04   6.7358E+01   6.7300E+01
     3    3.0000E+03   2.1157E-05   5.4663E-04   7.1501E+01   7.1414E+01
     4    4.0000E+03   2.3761E-05   6.1390E-04   6.6904E+01   6.6789E+01
     5    5.0000E+03   2.5417E-05   6.5668E-04   6.2296E+01   6.2152E+01
     6    6.0000E+03   2.6080E-05   6.7383E-04   5.9637E+01   5.9464E+01
     7    7.0000E+03   2.6356E-05   6.8096E-04   6.0140E+01   5.9939E+01
     8    8.0000E+03   2.8335E-05   7.3207E-04   6.5928E+01   6.5698E+01
     9    9.0000E+03   5.0519E-04   1.3052E-02   7.7983E+01   7.7724E+01


     TOTAL HARMONIC DISTORTION =   1.3158E+00 PERCENT

**** 04/06/19 11:54:24 ******* PSpice Lite (March 2016) ******* ID# 10813 ****

 diody zad4


 ****     INITIAL TRANSIENT SOLUTION       TEMPERATURE =   27.000 DEG C

 ****     CURRENT STEP                     PARAM AMPL =     .05  


******************************************************************************



 NODE   VOLTAGE     NODE   VOLTAGE     NODE   VOLTAGE     NODE   VOLTAGE


(    1)    0.0000  (    2) 225.1E-09  (    3)    5.0000  (    4)   -4.0000  




    VOLTAGE SOURCE CURRENTS
    NAME         CURRENT

    V_IN         2.251E-10
    V1          -6.162E-09
    V2          -5.937E-09

    TOTAL POWER DISSIPATION   5.46E-08  WATTS


**** 04/06/19 11:54:24 ******* PSpice Lite (March 2016) ******* ID# 10813 ****

 diody zad4


 ****     FOURIER ANALYSIS                 TEMPERATURE =   27.000 DEG C

 ****     CURRENT STEP                     PARAM AMPL =     .05  


******************************************************************************



FOURIER COMPONENTS OF TRANSIENT RESPONSE V(2)



 DC COMPONENT =   1.7030E-05

 HARMONIC   FREQUENCY     FOURIER     NORMALIZED     PHASE     NORMALIZED
    NO         (HZ)      COMPONENT     COMPONENT     (DEG)     PHASE (DEG)

     1    1.0000E+03   4.8381E-02   1.0000E+00   2.8757E-02   0.0000E+00
     2    2.0000E+03   2.1948E-05   4.5364E-04   6.7357E+01   6.7300E+01
     3    3.0000E+03   2.6446E-05   5.4663E-04   7.1501E+01   7.1415E+01
     4    4.0000E+03   2.9701E-05   6.1390E-04   6.6904E+01   6.6789E+01
     5    5.0000E+03   3.1771E-05   6.5668E-04   6.2296E+01   6.2152E+01
     6    6.0000E+03   3.2601E-05   6.7384E-04   5.9637E+01   5.9464E+01
     7    7.0000E+03   3.2945E-05   6.8096E-04   6.0140E+01   5.9939E+01
     8    8.0000E+03   3.5418E-05   7.3208E-04   6.5928E+01   6.5698E+01
     9    9.0000E+03   6.3149E-04   1.3052E-02   7.7983E+01   7.7724E+01


     TOTAL HARMONIC DISTORTION =   1.3158E+00 PERCENT

**** 04/06/19 11:54:24 ******* PSpice Lite (March 2016) ******* ID# 10813 ****

 diody zad4


 ****     INITIAL TRANSIENT SOLUTION       TEMPERATURE =   27.000 DEG C

 ****     CURRENT STEP                     PARAM AMPL =     .06  


******************************************************************************



 NODE   VOLTAGE     NODE   VOLTAGE     NODE   VOLTAGE     NODE   VOLTAGE


(    1)    0.0000  (    2) 225.1E-09  (    3)    5.0000  (    4)   -4.0000  




    VOLTAGE SOURCE CURRENTS
    NAME         CURRENT

    V_IN         2.251E-10
    V1          -6.162E-09
    V2          -5.937E-09

    TOTAL POWER DISSIPATION   5.46E-08  WATTS


**** 04/06/19 11:54:24 ******* PSpice Lite (March 2016) ******* ID# 10813 ****

 diody zad4


 ****     FOURIER ANALYSIS                 TEMPERATURE =   27.000 DEG C

 ****     CURRENT STEP                     PARAM AMPL =     .06  


******************************************************************************



FOURIER COMPONENTS OF TRANSIENT RESPONSE V(2)



 DC COMPONENT =   2.0390E-05

 HARMONIC   FREQUENCY     FOURIER     NORMALIZED     PHASE     NORMALIZED
    NO         (HZ)      COMPONENT     COMPONENT     (DEG)     PHASE (DEG)

     1    1.0000E+03   5.8057E-02   1.0000E+00   2.8756E-02   0.0000E+00
     2    2.0000E+03   2.6337E-05   4.5364E-04   6.7355E+01   6.7298E+01
     3    3.0000E+03   3.1735E-05   5.4663E-04   7.1500E+01   7.1414E+01
     4    4.0000E+03   3.5641E-05   6.1389E-04   6.6904E+01   6.6789E+01
     5    5.0000E+03   3.8116E-05   6.5652E-04   6.2301E+01   6.2157E+01
     6    6.0000E+03   3.9120E-05   6.7382E-04   5.9636E+01   5.9463E+01
     7    7.0000E+03   3.9534E-05   6.8095E-04   6.0139E+01   5.9938E+01
     8    8.0000E+03   4.2502E-05   7.3207E-04   6.5928E+01   6.5698E+01
     9    9.0000E+03   7.5778E-04   1.3052E-02   7.7983E+01   7.7724E+01


     TOTAL HARMONIC DISTORTION =   1.3158E+00 PERCENT

**** 04/06/19 11:54:24 ******* PSpice Lite (March 2016) ******* ID# 10813 ****

 diody zad4


 ****     INITIAL TRANSIENT SOLUTION       TEMPERATURE =   27.000 DEG C

 ****     CURRENT STEP                     PARAM AMPL =     .07  


******************************************************************************



 NODE   VOLTAGE     NODE   VOLTAGE     NODE   VOLTAGE     NODE   VOLTAGE


(    1)    0.0000  (    2) 225.1E-09  (    3)    5.0000  (    4)   -4.0000  




    VOLTAGE SOURCE CURRENTS
    NAME         CURRENT

    V_IN         2.251E-10
    V1          -6.162E-09
    V2          -5.937E-09

    TOTAL POWER DISSIPATION   5.46E-08  WATTS


**** 04/06/19 11:54:24 ******* PSpice Lite (March 2016) ******* ID# 10813 ****

 diody zad4


 ****     FOURIER ANALYSIS                 TEMPERATURE =   27.000 DEG C

 ****     CURRENT STEP                     PARAM AMPL =     .07  


******************************************************************************



FOURIER COMPONENTS OF TRANSIENT RESPONSE V(2)



 DC COMPONENT =   2.3752E-05

 HARMONIC   FREQUENCY     FOURIER     NORMALIZED     PHASE     NORMALIZED
    NO         (HZ)      COMPONENT     COMPONENT     (DEG)     PHASE (DEG)

     1    1.0000E+03   6.7733E-02   1.0000E+00   2.8755E-02   0.0000E+00
     2    2.0000E+03   3.0725E-05   4.5361E-04   6.7355E+01   6.7297E+01
     3    3.0000E+03   3.7024E-05   5.4662E-04   7.1499E+01   7.1413E+01
     4    4.0000E+03   4.1580E-05   6.1388E-04   6.6903E+01   6.6788E+01
     5    5.0000E+03   4.4460E-05   6.5640E-04   6.2304E+01   6.2161E+01
     6    6.0000E+03   4.5640E-05   6.7382E-04   5.9635E+01   5.9463E+01
     7    7.0000E+03   4.6123E-05   6.8095E-04   6.0139E+01   5.9937E+01
     8    8.0000E+03   4.9585E-05   7.3206E-04   6.5927E+01   6.5697E+01
     9    9.0000E+03   8.8408E-04   1.3052E-02   7.7983E+01   7.7724E+01


     TOTAL HARMONIC DISTORTION =   1.3158E+00 PERCENT

**** 04/06/19 11:54:24 ******* PSpice Lite (March 2016) ******* ID# 10813 ****

 diody zad4


 ****     INITIAL TRANSIENT SOLUTION       TEMPERATURE =   27.000 DEG C

 ****     CURRENT STEP                     PARAM AMPL =     .08  


******************************************************************************



 NODE   VOLTAGE     NODE   VOLTAGE     NODE   VOLTAGE     NODE   VOLTAGE


(    1)    0.0000  (    2) 225.1E-09  (    3)    5.0000  (    4)   -4.0000  




    VOLTAGE SOURCE CURRENTS
    NAME         CURRENT

    V_IN         2.251E-10
    V1          -6.162E-09
    V2          -5.937E-09

    TOTAL POWER DISSIPATION   5.46E-08  WATTS


**** 04/06/19 11:54:24 ******* PSpice Lite (March 2016) ******* ID# 10813 ****

 diody zad4


 ****     FOURIER ANALYSIS                 TEMPERATURE =   27.000 DEG C

 ****     CURRENT STEP                     PARAM AMPL =     .08  


******************************************************************************



FOURIER COMPONENTS OF TRANSIENT RESPONSE V(2)



 DC COMPONENT =   2.7112E-05

 HARMONIC   FREQUENCY     FOURIER     NORMALIZED     PHASE     NORMALIZED
    NO         (HZ)      COMPONENT     COMPONENT     (DEG)     PHASE (DEG)

     1    1.0000E+03   7.7409E-02   1.0000E+00   2.8756E-02   0.0000E+00
     2    2.0000E+03   3.5116E-05   4.5364E-04   6.7355E+01   6.7298E+01
     3    3.0000E+03   4.2312E-05   5.4660E-04   7.1500E+01   7.1414E+01
     4    4.0000E+03   4.7519E-05   6.1387E-04   6.6903E+01   6.6788E+01
     5    5.0000E+03   5.0812E-05   6.5641E-04   6.2304E+01   6.2160E+01
     6    6.0000E+03   5.2160E-05   6.7382E-04   5.9636E+01   5.9463E+01
     7    7.0000E+03   5.2712E-05   6.8095E-04   6.0139E+01   5.9937E+01
     8    8.0000E+03   5.6669E-05   7.3206E-04   6.5927E+01   6.5697E+01
     9    9.0000E+03   1.0104E-03   1.3052E-02   7.7983E+01   7.7724E+01


     TOTAL HARMONIC DISTORTION =   1.3158E+00 PERCENT

**** 04/06/19 11:54:24 ******* PSpice Lite (March 2016) ******* ID# 10813 ****

 diody zad4


 ****     INITIAL TRANSIENT SOLUTION       TEMPERATURE =   27.000 DEG C

 ****     CURRENT STEP                     PARAM AMPL =     .09  


******************************************************************************



 NODE   VOLTAGE     NODE   VOLTAGE     NODE   VOLTAGE     NODE   VOLTAGE


(    1)    0.0000  (    2) 225.1E-09  (    3)    5.0000  (    4)   -4.0000  




    VOLTAGE SOURCE CURRENTS
    NAME         CURRENT

    V_IN         2.251E-10
    V1          -6.162E-09
    V2          -5.937E-09

    TOTAL POWER DISSIPATION   5.46E-08  WATTS


**** 04/06/19 11:54:24 ******* PSpice Lite (March 2016) ******* ID# 10813 ****

 diody zad4


 ****     FOURIER ANALYSIS                 TEMPERATURE =   27.000 DEG C

 ****     CURRENT STEP                     PARAM AMPL =     .09  


******************************************************************************



FOURIER COMPONENTS OF TRANSIENT RESPONSE V(2)



 DC COMPONENT =   3.0472E-05

 HARMONIC   FREQUENCY     FOURIER     NORMALIZED     PHASE     NORMALIZED
    NO         (HZ)      COMPONENT     COMPONENT     (DEG)     PHASE (DEG)

     1    1.0000E+03   8.7085E-02   1.0000E+00   2.8755E-02   0.0000E+00
     2    2.0000E+03   3.9505E-05   4.5363E-04   6.7357E+01   6.7300E+01
     3    3.0000E+03   4.7602E-05   5.4662E-04   7.1500E+01   7.1413E+01
     4    4.0000E+03   5.3460E-05   6.1388E-04   6.6903E+01   6.6788E+01
     5    5.0000E+03   5.7163E-05   6.5640E-04   6.2304E+01   6.2160E+01
     6    6.0000E+03   5.8680E-05   6.7382E-04   5.9635E+01   5.9463E+01
