
**** 04/06/19 18:43:30 ******* PSpice Lite (March 2016) ******* ID# 10813 ****

 wzmacniacze zad1


 ****     CIRCUIT DESCRIPTION


******************************************************************************



*-------
.LIB EVAL.LIB 

*-------
VCC 3 0 15
VEE 0 4 15
VIN 1 0 1

X1 1 2 3 4 5 UA741
R1 0 2 1k
R2 2 5 10k

*-------        
.DC VIN -100 100 1m
.PROBE
.OP
;.TF V(2) VIN
*-------


.END

**** 04/06/19 18:43:30 ******* PSpice Lite (March 2016) ******* ID# 10813 ****

 wzmacniacze zad1


 ****     Diode MODEL PARAMETERS


******************************************************************************




               X1.dx           
          IS  800.000000E-18 
          RS    1            


**** 04/06/19 18:43:30 ******* PSpice Lite (March 2016) ******* ID# 10813 ****

 wzmacniacze zad1


 ****     BJT MODEL PARAMETERS


******************************************************************************




               X1.qx           
               NPN             
       LEVEL    1            
          IS  800.000000E-18 
          BF   93.75         
          NF    1            
          BR    1            
          NR    1            
         ISS    0            
          RE    0            
          RC    0            
         CJE    0            
         VJE     .75         
         CJC    0            
         VJC     .75         
         MJC     .33         
        XCJC    1            
         CJS    0            
         VJS     .75         
          KF    0            
          AF    1            
          CN    2.42         
           D     .87         


**** 04/06/19 18:43:30 ******* PSpice Lite (March 2016) ******* ID# 10813 ****

 wzmacniacze zad1


 ****     SMALL SIGNAL BIAS SOLUTION       TEMPERATURE =   27.000 DEG C


******************************************************************************



 NODE   VOLTAGE     NODE   VOLTAGE     NODE   VOLTAGE     NODE   VOLTAGE


(    1)    1.0000  (    2)     .9999  (    3)   15.0000  (    4)  -15.0000      

(    5)   11.0000  ( X1.6)    -.0011  ( X1.7)   11.0500  ( X1.8)   11.0500      

( X1.9)    0.0000  (X1.10)     .3921  (X1.11)   14.9600  (X1.12)   14.9600      

(X1.13)     .4060  (X1.14)     .4061  (X1.53)   14.0000  (X1.54)  -14.0000      

(X1.90)    1.0000  (X1.91)   40.0000  (X1.92)  -40.0000  (X1.99)    0.0000  




    VOLTAGE SOURCE CURRENTS
    NAME         CURRENT

    VCC         -1.667E-03
    VEE         -1.667E-03
    VIN         -8.021E-08
    X1.vb       -1.053E-08
    X1.vc        3.001E-12
    X1.ve        2.500E-11
    X1.vlim      1.000E-03
    X1.vlp      -3.900E-11
    X1.vln      -4.100E-11

    TOTAL POWER DISSIPATION   5.00E-02  WATTS


**** 04/06/19 18:43:30 ******* PSpice Lite (March 2016) ******* ID# 10813 ****

 wzmacniacze zad1


 ****     OPERATING POINT INFORMATION      TEMPERATURE =   27.000 DEG C


******************************************************************************






**** VOLTAGE-CONTROLLED CURRENT SOURCES


NAME         X1.ga       X1.gcm    
I-SOURCE     1.287E-08   2.337E-09


**** VOLTAGE-CONTROLLED VOLTAGE SOURCES


NAME         X1.egnd   
V-SOURCE     0.000E+00
I-SOURCE    -1.000E-03


**** CURRENT-CONTROLLED CURRENT SOURCES


NAME         X1.fb     
I-SOURCE    -1.114E-01


**** CURRENT-CONTROLLED VOLTAGE SOURCES


NAME         X1.hlim   
V-SOURCE     1.000E+00
I-SOURCE    -2.000E-12


**** DIODES


NAME         X1.dc       X1.de       X1.dlp      X1.dln      X1.dp     
MODEL        X1.dx       X1.dx       X1.dx       X1.dx       X1.dx     
ID          -3.00E-12   -2.50E-11   -3.90E-11   -4.10E-11   -3.00E-11 
VD          -3.00E+00   -2.50E+01   -3.90E+01   -4.10E+01   -3.00E+01 
REQ          1.00E+12    1.00E+12    1.00E+12    1.00E+12    1.00E+12 
CAP          0.00E+00    0.00E+00    0.00E+00    0.00E+00    0.00E+00 


**** BIPOLAR JUNCTION TRANSISTORS


NAME         X1.q1       X1.q2     
MODEL        X1.qx       X1.qx     
IB           8.01E-08    8.02E-08 
IC           7.51E-06    7.52E-06 
VBE          5.94E-01    5.94E-01 
VBC         -1.40E+01   -1.40E+01 
VCE          1.46E+01    1.46E+01 
BETADC       9.38E+01    9.38E+01 
GM           2.90E-04    2.91E-04 
RPI          3.23E+05    3.22E+05 
RX           0.00E+00    0.00E+00 
RO           1.00E+12    1.00E+12 
CBE          0.00E+00    0.00E+00 
CBC          0.00E+00    0.00E+00 
CJS          0.00E+00    0.00E+00 
BETAAC       9.38E+01    9.38E+01 
CBX/CBX2     0.00E+00    0.00E+00 
FT/FT2       4.62E+15    4.63E+15 



          JOB CONCLUDED

**** 04/06/19 18:43:30 ******* PSpice Lite (March 2016) ******* ID# 10813 ****

 wzmacniacze zad1


 ****     JOB STATISTICS SUMMARY


******************************************************************************



  Total job time (using Solver 1)   =        9.00
