
**** 04/07/19 22:45:21 ******* PSpice Lite (March 2016) ******* ID# 10813 ****

 zad wzmak


 ****     CIRCUIT DESCRIPTION


******************************************************************************



*-----
.LIB EVAL.LIB
*-----
VCC 3 0 15
VEE 0 4 15

V_P 1 0 0
V_N 2 0 0
V_OUT 5 0 0


X1 1 2 3 4 5 UA741
*-----

*.DC LIN V_P -0.2m 0.2m 1n


;.TF V(5) V_P
;.DC LIN V_P -10 10 1m
.OP

.PROBE
.END

**** 04/07/19 22:45:21 ******* PSpice Lite (March 2016) ******* ID# 10813 ****

 zad wzmak


 ****     Diode MODEL PARAMETERS


******************************************************************************




               X1.dx           
          IS  800.000000E-18 
          RS    1            


**** 04/07/19 22:45:21 ******* PSpice Lite (March 2016) ******* ID# 10813 ****

 zad wzmak


 ****     BJT MODEL PARAMETERS


******************************************************************************




               X1.qx           
               NPN             
       LEVEL    1            
          IS  800.000000E-18 
          BF   93.75         
          NF    1            
          BR    1            
          NR    1            
         ISS    0            
          RE    0            
          RC    0            
         CJE    0            
         VJE     .75         
         CJC    0            
         VJC     .75         
         MJC     .33         
        XCJC    1            
         CJS    0            
         VJS     .75         
          KF    0            
          AF    1            
          CN    2.42         
           D     .87         


**** 04/07/19 22:45:21 ******* PSpice Lite (March 2016) ******* ID# 10813 ****

 zad wzmak


 ****     SMALL SIGNAL BIAS SOLUTION       TEMPERATURE =   27.000 DEG C


******************************************************************************



 NODE   VOLTAGE     NODE   VOLTAGE     NODE   VOLTAGE     NODE   VOLTAGE


(    1)    0.0000  (    2)    0.0000  (    3)   15.0000  (    4)  -15.0000      

(    5)    0.0000  ( X1.6)-362.2E-06  ( X1.7)    1.2642  ( X1.8)    1.2642      

( X1.9)    0.0000  (X1.10)    -.6077  (X1.11)   14.9600  (X1.12)   14.9600      

(X1.13)    -.5938  (X1.14)    -.5938  (X1.53)   14.0000  (X1.54)  -14.0000      

(X1.90)   25.2850  (X1.91)   40.0000  (X1.92)  -40.0000  (X1.99)    0.0000  




    VOLTAGE SOURCE CURRENTS
    NAME         CURRENT

    VCC         -1.667E-03
    VEE         -1.667E-03
    V_P         -7.974E-08
    V_N         -7.974E-08
    V_OUT        2.528E-02
    X1.vb       -3.622E-09
    X1.vc        1.400E-11
    X1.ve        1.400E-11
    X1.vlim      2.528E-02
    X1.vlp      -1.472E-11
    X1.vln      -6.529E-11

    TOTAL POWER DISSIPATION   5.00E-02  WATTS


**** 04/07/19 22:45:21 ******* PSpice Lite (March 2016) ******* ID# 10813 ****

 zad wzmak


 ****     OPERATING POINT INFORMATION      TEMPERATURE =   27.000 DEG C


******************************************************************************






**** VOLTAGE-CONTROLLED CURRENT SOURCES


NAME         X1.ga       X1.gcm    
I-SOURCE     3.348E-19  -3.622E-09


**** VOLTAGE-CONTROLLED VOLTAGE SOURCES


NAME         X1.egnd   
V-SOURCE     0.000E+00
I-SOURCE    -2.528E-02


**** CURRENT-CONTROLLED CURRENT SOURCES


NAME         X1.fb     
I-SOURCE    -3.793E-02


**** CURRENT-CONTROLLED VOLTAGE SOURCES


NAME         X1.hlim   
V-SOURCE     2.528E+01
I-SOURCE    -5.058E-11


**** DIODES


NAME         X1.dc       X1.de       X1.dlp      X1.dln      X1.dp     
MODEL        X1.dx       X1.dx       X1.dx       X1.dx       X1.dx     
ID          -1.40E-11   -1.40E-11   -1.47E-11   -6.53E-11   -3.00E-11 
VD          -1.40E+01   -1.40E+01   -1.47E+01   -6.53E+01   -3.00E+01 
REQ          1.00E+12    1.00E+12    1.00E+12    1.00E+12    1.00E+12 
CAP          0.00E+00    0.00E+00    0.00E+00    0.00E+00    0.00E+00 


**** BIPOLAR JUNCTION TRANSISTORS


NAME         X1.q1       X1.q2     
MODEL        X1.qx       X1.qx     
IB           7.97E-08    7.97E-08 
IC           7.48E-06    7.48E-06 
VBE          5.94E-01    5.94E-01 
VBC         -1.50E+01   -1.50E+01 
VCE          1.56E+01    1.56E+01 
BETADC       9.38E+01    9.38E+01 
GM           2.89E-04    2.89E-04 
RPI          3.24E+05    3.24E+05 
RX           0.00E+00    0.00E+00 
RO           1.00E+12    1.00E+12 
CBE          0.00E+00    0.00E+00 
CBC          0.00E+00    0.00E+00 
CJS          0.00E+00    0.00E+00 
BETAAC       9.38E+01    9.38E+01 
CBX/CBX2     0.00E+00    0.00E+00 
FT/FT2       4.60E+15    4.60E+15 



          JOB CONCLUDED

**** 04/07/19 22:45:21 ******* PSpice Lite (March 2016) ******* ID# 10813 ****

 zad wzmak


 ****     JOB STATISTICS SUMMARY


******************************************************************************



  Total job time (using Solver 1)   =        0.00
